Voltage value = 136.59336599999997 kV
Python Federate grantedtime = 1e-09
Load value = (2853.1696113942044+923.7055641182151j) kW
 Federate m has been registered
1
complex
Registered Subscription ---> IEEE_123_feeder_0/totalLoad
PF TIme is 0.0 and ACOPF time is 0.0
PYPOWER Version 5.1.4, 27-June-2018 -- AC Optimal Power Flow
Python Interior Point Solver - PIPS, Version 1.0, 07-Feb-2011
Converged!

Converged in 3.59 seconds
Objective Function Value = 31933.76 $/hr
================================================================================
|     System Summary                                                           |
================================================================================

How many?                How much?              P (MW)            Q (MVAr)
---------------------    -------------------  -------------  -----------------
Buses            118     Total Gen Capacity    9966.2       -7345.0 to 11777.0
Generators        54     On-line Capacity      9966.2       -7345.0 to 11777.0
Committed Gens    54     Generation (actual)   1379.1            -611.9
Loads             99     Load                  1366.7             834.3
  Fixed           99       Fixed               1366.7             834.3
  Dispatchable     0       Dispatchable           0.0 of 0.0        0.0
Shunts            14     Shunt (inj)             -0.0              97.7
Branches         186     Losses (I^2 * Z)        12.45             80.48
Transformers       9     Branch Charging (inj)     -             1429.1
Inter-ties         0     Total Inter-tie Flow     0.0               0.0
Areas              1

                          Minimum                      Maximum
                 -------------------------  --------------------------------
Voltage Magnitude   1.004 p.u. @ bus 81         1.060 p.u. @ bus 83  
Voltage Angle      24.04 deg   @ bus 41        33.14 deg   @ bus 10  
P Losses (I^2*R)             -                  0.68 MW    @ line 69-75
Q Losses (I^2*X)             -                  6.90 MVAr  @ line 8-9
Lambda P           25.87 $/MWh @ bus 89        27.33 $/MWh @ bus 112 
Lambda Q           -0.40 $/MWh @ bus 44         0.06 $/MWh @ bus 118 

================================================================================
|     Bus Data                                                                 |
================================================================================
 Bus      Voltage          Generation             Load          Lambda($/MVA-hr)
  #   Mag(pu) Ang(deg)   P (MW)   Q (MVAr)   P (MW)   Q (MVAr)     P        Q   
----- ------- --------  --------  --------  --------  --------  -------  -------
    1  1.035   25.776      0.00      7.91     11.11      6.88    26.883     -
    2  1.035   25.863       -         -        5.99      3.71    26.867   0.009
    3  1.035   26.012       -         -        9.43      5.84    26.818   0.015
    4  1.039   26.900      0.00     37.95     12.53      7.76    26.611     -
    5  1.038   27.061       -         -         -         -      26.586   0.024
    6  1.037   26.255      0.00     16.63     17.20     10.66    26.757     -
    7  1.037   26.152       -         -        7.14      4.42    26.783   0.006
    8  1.022   28.460      0.00   -153.51      8.44      5.23    26.599     -
    9  1.046   30.660       -         -         -         -      26.433  -0.074
   10  1.032   33.141    140.82   -118.23       -         -      26.259     -
   11  1.035   26.219       -         -       20.97     13.00    26.788   0.027
   12  1.037   26.098     28.91     12.05     11.36      7.04    26.801     -
   13  1.033   25.740       -         -       10.92      6.77    26.915   0.043
   14  1.037   25.793       -         -        4.84      3.00    26.874  -0.005
   15  1.040   25.476      0.00     -9.42     29.76     18.45    26.930  -0.001
   16  1.039   25.835       -         -        9.39      5.82    26.849  -0.012
   17  1.049   26.113       -         -        3.31      2.05    26.739  -0.085
   18  1.040   25.544      0.00     -2.63     20.23     12.54    26.900     -
   19  1.040   25.423      0.00     -7.07      9.80      6.07    26.936  -0.000
   20  1.042   25.619       -         -        5.39      3.34    26.938  -0.011
   21  1.045   25.996       -         -        3.38      2.10    26.891  -0.025
   22  1.048   26.601       -         -        3.21      1.99    26.803  -0.037
   23  1.053   27.878       -         -        2.42      1.50    26.608  -0.036
   24  1.049   27.704      0.00    -13.51      4.30      2.66    26.692     -
   25  1.057   30.183     68.93    -24.25       -         -      26.266     -
   26  1.017   30.796     99.09    -54.21       -         -      26.311     -
   27  1.044   26.383      0.00      6.90     23.93     14.83    26.888     -
   28  1.042   25.994       -         -        3.70      2.29    26.956   0.004
   29  1.040   25.751       -         -        7.19      4.46    27.000   0.011
   30  1.026   27.534       -         -         -         -      26.688  -0.088
   31  1.041   25.777      2.44      3.12     13.81      8.56    26.982     -
   32  1.043   26.211      0.00      0.65     20.39     12.64    26.919     -
   33  1.047   25.101       -         -        7.61      4.71    26.950  -0.105
   34  1.058   25.088      0.00     -8.00     22.16     13.73    26.862  -0.221
   35  1.055   25.002       -         -        9.94      6.16    26.888  -0.184
   36  1.054   25.002      0.00     -8.00     10.45      6.48    26.892  -0.180
   37  1.060   25.226       -         -         -         -      26.816  -0.233
   38  1.016   26.730       -         -         -         -      26.757  -0.144
   39  1.044   24.448       -         -        6.53      4.05    27.128  -0.074
   40  1.037   24.187      0.00     -4.55     21.20     13.14    27.253     -
   41  1.034   24.045       -         -       12.79      7.92    27.315   0.030
   42  1.038   24.454      0.00      9.94     31.75     19.68    27.223     -
   43  1.059   24.923       -         -        6.76      4.19    26.996  -0.316
   44  1.060   25.579       -         -        4.82      2.99    27.006  -0.404
   45  1.051   26.194       -         -       17.87     11.07    26.975  -0.242
   46  1.042   27.317      6.43    -28.89      6.10      3.78    26.767     -
   47  1.046   27.846       -         -       10.19      6.31    26.643   0.002
   48  1.052   27.596       -         -        4.84      3.00    26.652  -0.112
   49  1.047   27.950     67.08    -31.67     27.95     17.32    26.576     -
   50  1.043   27.314       -         -        5.87      3.64    26.750   0.006
   51  1.038   26.488       -         -        5.62      3.48    26.978   0.018
   52  1.036   26.200       -         -        6.76      4.19    27.061   0.027
   53  1.036   25.955       -         -        6.93      4.30    27.077   0.015
   54  1.038   26.218     16.78     11.37     38.09     23.61    26.992     -
   55  1.038   26.171      0.00      4.59     13.72      8.50    26.999     -
   56  1.038   26.198      0.00      6.85     25.16     15.60    26.999     -
   57  1.040   26.567       -         -        2.90      1.80    26.923  -0.009
   58  1.037   26.281       -         -        3.85      2.39    27.015   0.011
   59  1.043   27.235     51.58     14.88     95.73     59.33    26.655     -
   60  1.042   28.347       -         -       25.80     15.99    26.509   0.013
   61  1.044   28.592     51.72     30.02       -         -      26.465     -
   62  1.044   28.447      0.00     10.60     23.20     14.38    26.503     -
   63  1.014   28.191       -         -         -         -      26.568  -0.003
   64  1.020   28.694       -         -         -         -      26.478  -0.025
   65  1.010   29.672    124.00    -67.00       -         -      26.343  -0.004
   66  1.054   29.793    123.24    -67.00      9.43      5.84    26.288  -0.015
   67  1.047   28.931       -         -        8.99      5.57    26.439   0.007
   68  1.008   29.471       -         -         -         -      26.325  -0.000
   69  1.056   30.000*   161.30    -91.87       -         -      26.247     -
   70  1.045   27.493      0.00     -0.57     24.79     15.36    26.838     -
   71  1.046   27.446       -         -         -         -      26.839  -0.007
   72  1.046   27.375      0.00     -2.88      4.05      2.51    26.815     -
   73  1.045   27.422      0.00     -1.47      1.31      0.81    26.845     -
   74  1.041   26.955      0.00     -0.60     20.37     12.63    27.050     -
   75  1.041   27.241       -         -       11.36      7.04    26.991   0.012
   76  1.037   26.485      0.00     18.92     21.84     13.54    27.205     -
   77  1.047   28.731      0.00    -17.81     21.08     13.06    26.576     -
   78  1.047   28.641       -         -       23.48     14.55    26.594   0.005
   79  1.050   28.724       -         -       14.65      9.08    26.555  -0.023
   80  1.052   29.612    151.04    -56.71     39.18     24.28    26.333     -
   81  1.004   29.538       -         -         -         -      26.325   0.012
   82  1.059   28.674       -         -       11.76      7.29    26.489  -0.238
   83  1.060   28.890       -         -        5.99      3.71    26.406  -0.299
   84  1.057   29.504       -         -        2.66      1.65    26.259  -0.144
   85  1.055   29.898      0.00     -8.00      7.71      4.78    26.149  -0.063
   86  1.051   29.558       -         -        7.26      4.50    26.248  -0.024
   87  1.048   29.719      1.25     -4.22       -         -      26.232     -
   88  1.053   30.648       -         -       18.03     11.17    26.052   0.010
   89  1.060   31.767    178.05    -15.71       -         -      25.867     -
   90  1.052   29.981      0.00     25.72     54.95     34.05    26.266     -
   91  1.053   30.068      0.00     -1.67      2.18      1.35    26.230     -
   92  1.055   30.342      0.00     -2.78     19.47     12.07    26.136  -0.001
   93  1.053   29.645       -         -        2.90      1.80    26.306  -0.019
   94  1.051   29.156       -         -        9.64      5.97    26.423  -0.032
   95  1.049   28.876       -         -       14.51      9.00    26.497  -0.030
   96  1.053   28.868       -         -       12.57      7.79    26.476  -0.090
   97  1.052   29.100       -         -        5.63      3.49    26.430  -0.043
   98  1.049   29.119       -         -       10.25      6.35    26.433   0.016
   99  1.050   28.894      0.00      4.70     14.16      8.77    26.472     -
  100  1.051   29.210     80.70    -16.61      8.06      4.99    26.405     -
  101  1.052   29.437       -         -        6.59      4.08    26.342   0.002
  102  1.055   30.011       -         -        1.21      0.75    26.209  -0.006
  103  1.047   28.207     13.33     -5.39      7.39      4.58    26.666     -
  104  1.043   27.317      0.00     -3.53     13.13      8.14    26.871     -
  105  1.044   26.981      0.00     -8.00     10.25      6.35    26.951  -0.034
  106  1.041   26.897       -         -       16.15     10.01    26.978  -0.003
  107  1.038   26.226      0.00     -3.41     15.07      9.34    27.165     -
  108  1.043   26.747       -         -        0.67      0.42    27.010  -0.030
  109  1.042   26.667       -         -        1.74      1.08    27.030  -0.024
  110  1.041   26.531      0.00     -7.64     11.68      7.24    27.060  -0.001
  111  1.043   27.027     12.46     -1.06       -         -      26.924     -
  112  1.035   25.784      0.00     10.43     21.84     13.54    27.334     -
  113  1.044   26.177      0.00    -21.03      2.07      1.29    26.771     -
  114  1.041   26.115       -         -        2.65      1.64    26.944   0.016
  115  1.041   26.112       -         -        8.26      5.12    26.946   0.018
  116  1.008   29.344      0.00     23.77     55.45     34.36    26.335     -
  117  1.032   25.632       -         -        6.74      4.18    26.913   0.039
  118  1.033   26.355       -         -       42.80     13.86    27.259   0.058
                        --------  --------  --------  --------
               Total:   1379.14   -611.91   1366.69    834.33

================================================================================
|     Branch Data                                                              |
================================================================================
Brnch   From   To    From Bus Injection   To Bus Injection     Loss (I^2 * Z)  
  #     Bus    Bus    P (MW)   Q (MVAr)   P (MW)   Q (MVAr)   P (MW)   Q (MVAr)
-----  -----  -----  --------  --------  --------  --------  --------  --------
   0      1      2     -1.49     -0.94      1.49     -1.77     0.001      0.00
   1      1      3     -9.62      1.97      9.63     -3.09     0.012      0.04
   2      4      5    -31.34     30.40     31.37    -30.49     0.031      0.14
   3      3      5    -17.81      0.26     17.88     -2.99     0.072      0.32
   4      5      6     26.91     -5.87    -26.82      4.71     0.083      0.38
   5      6      7      9.63      1.25     -9.62     -1.83     0.004      0.02
   6      8      9   -139.72   -125.01    140.27      7.65     0.552      6.90
   7      8      5     98.47      2.34    -98.47      0.06    -0.000      2.40
   8      9     10   -140.27     -7.65    140.82   -118.23     0.548      6.84
   9      4     11     18.81     -0.22    -18.74     -1.44     0.069      0.23
  10      5     11     22.31     -3.78    -22.22      2.23     0.095      0.32
  11     11     12      7.94    -12.24     -7.93     11.74     0.011      0.04
  12      2     12     -7.48     -1.94      7.49      0.28     0.010      0.03
  13      3     12     -1.25     -3.02      1.26     -1.34     0.001      0.00
  14      7     12      2.49     -2.60     -2.49      1.66     0.001      0.00
  15     11     13     12.05     -1.55    -12.02     -0.36     0.030      0.10
  16     12     14      7.32     -3.55     -7.30      1.63     0.012      0.04
  17     13     15      1.10     -6.41     -1.09     -0.30     0.007      0.02
  18     14     15      2.47     -4.63     -2.46     -0.76     0.005      0.02
  19     12     16      5.14     -4.20     -5.13      1.93     0.007      0.03
  20     15     17    -31.91    -16.10     32.06     11.74     0.147      0.49
  21     16     17     -4.26     -7.74      4.28      2.74     0.019      0.08
  22     17     18     24.83     12.99    -24.74    -14.04     0.090      0.37
  23     18     19      4.51     -1.13     -4.51     -0.10     0.002      0.01
  24     19     20     -3.38     -2.59      3.38     -0.62     0.003      0.01
  25     15     19      2.20     -1.68     -2.20      0.60     0.001      0.00
  26     20     21     -8.77     -2.72      8.79      0.43     0.013      0.06
  27     21     22    -12.17     -2.53     12.20     -0.03     0.029      0.13
  28     22     23    -15.41     -1.96     15.49     -2.16     0.074      0.34
  29     23     24      8.69      4.07     -8.67     -9.51     0.015      0.05
  30     23     25    -54.76      1.45     55.19     -8.87     0.427      2.19
  31     26     25     31.37      7.01    -31.37     -6.66    -0.000      0.35
  32     25     27     45.12     -8.71    -44.54     -7.79     0.579      2.97
  33     27     28      8.77     -0.56     -8.76     -1.73     0.014      0.06
  34     28     29      5.06     -0.57     -5.05     -1.99     0.006      0.02
  35     30     17     71.67     53.11    -71.67    -50.40    -0.000      2.70
  36      8     30     32.82    -36.08    -32.77    -17.27     0.048      0.56
  37     26     30     67.72    -61.22    -67.35    -29.55     0.370      3.98
  38     17     31      5.31      1.77     -5.29     -6.07     0.019      0.06
  39     29     31     -2.14     -2.47      2.14      1.57     0.001      0.00
  40     23     32     28.17     -4.86    -27.94     -7.20     0.228      0.83
  41     31     32     -8.22     -0.94      8.24     -1.72     0.019      0.06
  42     27     32      4.36     -0.94     -4.36     -1.15     0.004      0.01
  43     15     33      3.50     -9.02     -3.47      5.62     0.023      0.08
  44     19     34      0.28    -11.05     -0.24      4.23     0.041      0.13
  45     35     36      0.83      3.50     -0.83     -3.80     0.000      0.00
  46     35     37    -10.77     -9.66     10.79      8.28     0.019      0.09
  47     33     37     -4.13    -10.33      4.17      6.38     0.033      0.11
  48     34     36      9.64     10.09     -9.62    -10.68     0.016      0.05
  49     34     37    -33.24    -17.11     33.28     16.12     0.032      0.12
  50     38     37     80.66     78.65    -80.66    -74.62    -0.000      4.03
  51     37     39     17.38      9.08    -17.26    -11.68     0.118      0.39
  52     37     40     15.05      6.67    -14.89    -10.83     0.163      0.46
  53     30     38     28.45     -6.29    -28.40    -37.15     0.047      0.55
  54     39     40     10.73      7.63    -10.70     -9.21     0.032      0.10
  55     40     41      6.91      4.12     -6.90     -5.40     0.009      0.03
  56     40     42     -2.52     -1.77      2.52     -3.23     0.004      0.01
  57     41     42     -5.89     -2.53      5.90     -1.12     0.013      0.04
  58     43     44     -5.07     -2.75      5.09     -4.00     0.014      0.06
  59     34     43      1.69     -3.28     -1.69     -1.44     0.001      0.01
  60     44     45     -9.91     12.25      9.97    -14.52     0.056      0.23
  61     45     46    -12.58      9.12     12.68    -12.42     0.101      0.34
  62     46     47     -8.16     -2.56      8.19     -0.80     0.024      0.08
  63     46     48     -4.19     -6.85      4.21      1.74     0.020      0.06
  64     47     49     -3.72     -2.56      3.72      0.82     0.003      0.01
  65     42     49    -20.09     -2.69     20.36     -5.43     0.270      1.22
  66     42     49    -20.09     -2.69     20.36     -5.43     0.270      1.22
  67     45     49    -15.25      5.36     15.44     -9.75     0.182      0.49
  68     48     49     -9.04     11.85      9.08    -13.13     0.039      0.11
  69     49     50     16.09     -1.18    -16.03     -0.69     0.063      0.18
  70     49     51     20.32     -1.68    -20.14     -1.52     0.183      0.52
  71     51     52      9.42     -0.08     -9.41     -1.37     0.017      0.05
  72     52     53      2.65     -2.82     -2.64     -1.52     0.003      0.01
  73     53     54     -4.29     -2.77      4.29     -0.54     0.005      0.02
  74     49     54     11.52     -3.46    -11.43     -4.21     0.089      0.35
  75     49     54     11.32     -3.91    -11.22     -3.68     0.102      0.34
  76     54     55      1.26     -1.02     -1.26     -1.15     0.000      0.00
  77     54     56      4.22      0.67     -4.22     -1.45     0.000      0.00
  78     55     56     -3.10      0.54      3.10     -0.94     0.000      0.00
  79     56     57     -7.19     -1.29      7.21     -1.27     0.016      0.05
  80     50     57     10.15     -2.95    -10.11     -0.53     0.045      0.13
  81     56     58     -1.23     -0.24      1.23     -2.36     0.001      0.00
  82     51     58      5.09     -1.88     -5.08     -0.03     0.006      0.02
  83     54     59     -8.43     -3.45      8.46     -2.87     0.033      0.15
  84     56     59     -7.63     -2.54      7.68     -3.48     0.045      0.14
  85     56     59     -7.99     -2.28      8.04     -3.37     0.048      0.14
  86     55     59     -9.37     -3.30      9.41     -2.63     0.039      0.18
  87     59     60    -13.71      1.79     13.76     -5.61     0.059      0.27
  88     59     61    -16.45      1.21     16.54     -5.04     0.085      0.39
  89     60     61    -35.55     -6.65     35.58      5.23     0.032      0.16
  90     60     62     -4.02     -3.73      4.02      2.15     0.003      0.01
  91     61     62      6.78     -3.08     -6.77      2.03     0.004      0.02
  92     63     59     47.58     36.33    -47.58    -35.09    -0.000      1.24
